
T10C0 000:003 SEGGER J-Link V6.48b Log File (0001ms, 0003ms total)
T10C0 000:003 DLL Compiled: Aug  2 2019 10:18:25 (0001ms, 0003ms total)
T10C0 000:003 Logging started @ 2021-10-27 19:01 (0001ms, 0003ms total)
T10C0 000:004 JLINK_SetWarnOutHandler(...) (0000ms, 0003ms total)
T10C0 000:004 JLINK_OpenEx(...)
Firmware: J-Link V9 compiled May  7 2021 16:26:12
Hardware: V9.60
S/N: 69610069
Feature(s): RDI, GDB, FlashDL, FlashBP, JFlash
TELNET listener socket opened on port 19021WEBSRV 
Starting webserver (0058ms, 0061ms total)
T10C0 000:004 WEBSRV Webserver running on local port 19080 (0058ms, 0061ms total)
T10C0 000:004   returns O.K. (0058ms, 0061ms total)
T10C0 000:062 JLINK_GetEmuCaps()  returns 0xB9FF7BBF (0000ms, 0061ms total)
T10C0 000:062 JLINK_TIF_GetAvailable(...) (0000ms, 0061ms total)
T10C0 000:062 JLINK_SetErrorOutHandler(...) (0000ms, 0061ms total)
T10C0 000:062 JLINK_ExecCommand("ProjectFile = "C:\Users\AmirMahdi\Desktop\SpiLcd_Stm32_newlib_ili9341\MDK-ARM\JLinkSettings.ini"", ...). Ref file found at: F:\Keil_v5\ARM\Segger\JLinkDevices.ref (0003ms, 0064ms total)
T10C0 000:062 XML referenced by ref file: C:\Program Files (x86)\SEGGER\JLink\JLinkDevices.xml (0003ms, 0064ms total)
T10C0 000:062 C:\Program Files (x86)\SEGGER\JLink\JLinkDevices.xml evaluated successfully.  returns 0x00 (0103ms, 0164ms total)
T10C0 000:167 JLINK_ExecCommand("Device = STM32F103RE", ...). Device "STM32F103RE" selected.  returns 0x00 (0004ms, 0168ms total)
T10C0 000:171 JLINK_ExecCommand("DisableConnectionTimeout", ...).   returns 0x01 (0000ms, 0168ms total)
T10C0 000:171 JLINK_GetHardwareVersion()  returns 0x17700 (0000ms, 0168ms total)
T10C0 000:171 JLINK_GetDLLVersion()  returns 64802 (0000ms, 0168ms total)
T10C0 000:171 JLINK_GetFirmwareString(...) (0000ms, 0168ms total)
T10C0 000:182 JLINK_GetDLLVersion()  returns 64802 (0000ms, 0168ms total)
T10C0 000:182 JLINK_GetCompileDateTime() (0000ms, 0168ms total)
T10C0 000:186 JLINK_GetFirmwareString(...) (0000ms, 0168ms total)
T10C0 000:192 JLINK_GetHardwareVersion()  returns 0x17700 (0000ms, 0168ms total)
T10C0 000:214 JLINK_TIF_Select(JLINKARM_TIF_SWD)  returns 0x00 (0001ms, 0169ms total)
T10C0 000:215 JLINK_SetSpeed(5000) (0000ms, 0169ms total)
T10C0 000:215 JLINK_GetId() >0x10B TIF> >0x10F TIF> >0x10B TIF>Found SW-DP with ID 0x1BA01477 >0x0D TIF> >0x28 TIF> >0x0D TIF> >0x28 TIF> >0x0D TIF> >0x0D TIF> >0x0D TIF>STM32 (connect): Can not attach to CPU. Trying connect under reset. >0x10B TIF>Found SW-DP with ID 0x1BA01477 >0x0D TIF> >0x28 TIF> >0x0D TIF> >0x28 TIF> >0x0D TIF> >0x28 TIF> >0x0D TIF> >0x28 TIF> >0x0D TIF> >0x21 TIF> >0x0D TIF> >0x28 TIF> >0x0D TIF> >0x28 TIF> >0x0D TIF> >0x28 TIF> >0x0D TIF> >0x0D TIF> >0x21 TIF> >0x0D TIF>
 >0x21 TIF> >0x0D TIF> >0x28 TIF> >0x0D TIF> >0x0D TIF> >0x21 TIF> >0x0D TIF> >0x21 TIF> >0x0D TIF> >0x28 TIF> >0x0D TIF> >0x0D TIF> >0x21 TIF> >0x0D TIF> >0x21 TIF> >0x0D TIF> >0x28 TIF> >0x0D TIF> >0x0D TIF> >0x21 TIF> >0x0D TIF> >0x21 TIF> >0x0D TIF> >0x28 TIF> >0x0D TIF> >0x28 TIF> >0x0D TIF> >0x28 TIF> >0x0D TIF> >0x21 TIF> >0x0D TIF> >0x21 TIF> >0x0D TIF> >0x28 TIF> >0x0D TIF> >0x21 TIF> >0x0D TIF> >0x21 TIF> >0x0D TIF> >0x28 TIF> >0x0D TIF> >0x21 TIF> >0x0D TIF> >0x21 TIF> >0x0D TIF> >0x28 TIF>
 >0x0D TIF> >0x21 TIF> >0x0D TIF> >0x21 TIF> >0x0D TIF> >0x28 TIF> >0x0D TIF> >0x21 TIF> >0x0D TIF> >0x21 TIF> >0x0D TIF> >0x28 TIF> >0x0D TIF> >0x28 TIF> >0x10B TIF>Found SW-DP with ID 0x1BA01477 >0x0D TIF> >0x28 TIF> >0x0D TIF> >0x28 TIF> >0x0D TIF> >0x28 TIF> >0x0D TIF> >0x28 TIF> >0x0D TIF> >0x21 TIF> >0x0D TIF> >0x28 TIF>Scanning AP map to find all available APs >0x0D TIF> >0x28 TIF> >0x0D TIF> >0x21 TIF> >0x0D TIF> >0x21 TIF> >0x0D TIF> >0x28 TIF> >0x0D TIF> >0x21 TIF> >0x0D TIF> >0x21 TIF>
AP[1]: Stopped AP scan as end of AP map has been reachedAP[0]: AHB-AP (IDR: 0x14770011)Iterating through AP map to find AHB-AP to use >0x42 TIF> >0x28 TIF> >0x0D TIF> >0x28 TIF> >0x0D TIF> >0x21 TIF> >0x0D TIF> >0x21 TIF> >0x42 TIF> >0x28 TIF> >0x0D TIF> >0x28 TIF> >0x0D TIF> >0x28 TIF> >0x0D TIF> >0x21 TIF> >0x0D TIF> >0x21 TIF>AP[0]: Core foundAP[0]: AHB-AP ROM base: 0xE00FF000 >0x0D TIF> >0x28 TIF> >0x0D TIF> >0x28 TIF> >0x0D TIF> >0x28 TIF> >0x0D TIF> >0x21 TIF> >0x0D TIF> >0x21 TIF>
CPUID register: 0x411FC231. Implementer code: 0x41 (ARM)Found Cortex-M3 r1p1, Little endian. -- Max. mem block: 0x00010E08 -- CPU_ReadMem(4 bytes @ 0xE000EDF0) -- CPU_ReadMem(4 bytes @ 0xE0002000)FPUnit: 6 code (BP) slots and 2 literal slots -- CPU_ReadMem(4 bytes @ 0xE000EDFC) -- CPU_ReadMem(4 bytes @ 0xE0001000) -- CPU_WriteMem(4 bytes @ 0xE0001000) -- CPU_ReadMem(4 bytes @ 0xE000ED88) -- CPU_WriteMem(4 bytes @ 0xE000ED88) -- CPU_ReadMem(4 bytes @ 0xE000ED88) -- CPU_WriteMem(4 bytes @ 0xE000ED88)
CoreSight components:ROMTbl[0] @ E00FF000 -- CPU_ReadMem(16 bytes @ 0xE00FF000) -- CPU_ReadMem(16 bytes @ 0xE000EFF0) -- CPU_ReadMem(16 bytes @ 0xE000EFE0)ROMTbl[0][0]: E000E000, CID: B105E00D, PID: 001BB000 SCS -- CPU_ReadMem(16 bytes @ 0xE0001FF0) -- CPU_ReadMem(16 bytes @ 0xE0001FE0)ROMTbl[0][1]: E0001000, CID: B105E00D, PID: 001BB002 DWT -- CPU_ReadMem(16 bytes @ 0xE0002FF0) -- CPU_ReadMem(16 bytes @ 0xE0002FE0)ROMTbl[0][2]: E0002000, CID: B105E00D, PID: 000BB003 FPB
 -- CPU_ReadMem(16 bytes @ 0xE0000FF0) -- CPU_ReadMem(16 bytes @ 0xE0000FE0)ROMTbl[0][3]: E0000000, CID: B105E00D, PID: 001BB001 ITM -- CPU_ReadMem(16 bytes @ 0xE00FF010) -- CPU_ReadMem(16 bytes @ 0xE0040FF0) -- CPU_ReadMem(16 bytes @ 0xE0040FE0)ROMTbl[0][4]: E0040000, CID: B105900D, PID: 001BB923 TPIU-Lite -- CPU_ReadMem(16 bytes @ 0xE0041FF0) -- CPU_ReadMem(16 bytes @ 0xE0041FE0)ROMTbl[0][5]: E0041000, CID: B105900D, PID: 101BB924 ETM-M3 >0x0D TIF> >0x21 TIF>  returns 0x1BA01477
 (0533ms, 0702ms total)
T10C0 000:748 JLINK_GetDLLVersion()  returns 64802 (0000ms, 0702ms total)
T10C0 000:748 JLINK_CORE_GetFound()  returns 0x30000FF (0000ms, 0702ms total)
T10C0 000:748 JLINK_GetDebugInfo(0x100 = JLINKARM_ROM_TABLE_ADDR_INDEX) -- Value=0xE00FF000  returns 0x00 (0000ms, 0702ms total)
T10C0 000:753 JLINK_GetDebugInfo(0x100 = JLINKARM_ROM_TABLE_ADDR_INDEX) -- Value=0xE00FF000  returns 0x00 (0000ms, 0702ms total)
T10C0 000:753 JLINK_GetDebugInfo(0x101 = JLINKARM_DEBUG_INFO_ETM_ADDR_INDEX) -- Value=0xE0041000  returns 0x00 (0000ms, 0702ms total)
T10C0 000:753 JLINK_ReadMemEx(0xE0041FD0, 0x0020 Bytes, ..., Flags = 0x02000004) -- CPU_ReadMem(32 bytes @ 0xE0041FD0) - Data: 04 00 00 00 00 00 00 00 00 00 00 00 00 00 00 00 ...  returns 0x20 (0001ms, 0703ms total)
T10C0 000:754 JLINK_GetDebugInfo(0x102 = JLINKARM_DEBUG_INFO_MTB_ADDR_INDEX) -- Value=0x00000000  returns 0x00 (0000ms, 0703ms total)
T10C0 000:754 JLINK_GetDebugInfo(0x103 = JLINKARM_DEBUG_INFO_TPIU_ADDR_INDEX) -- Value=0xE0040000  returns 0x00 (0000ms, 0703ms total)
T10C0 000:754 JLINK_GetDebugInfo(0x104 = JLINKARM_DEBUG_INFO_ITM_ADDR_INDEX) -- Value=0xE0000000  returns 0x00 (0000ms, 0703ms total)
T10C0 000:754 JLINK_GetDebugInfo(0x105 = JLINKARM_DEBUG_INFO_DWT_ADDR_INDEX) -- Value=0xE0001000  returns 0x00 (0000ms, 0703ms total)
T10C0 000:754 JLINK_GetDebugInfo(0x106 = JLINKARM_DEBUG_INFO_FPB_ADDR_INDEX) -- Value=0xE0002000  returns 0x00 (0000ms, 0703ms total)
T10C0 000:754 JLINK_GetDebugInfo(0x107 = JLINKARM_DEBUG_INFO_NVIC_ADDR_INDEX) -- Value=0xE000E000  returns 0x00 (0000ms, 0703ms total)
T10C0 000:754 JLINK_GetDebugInfo(0x10C = JLINKARM_DEBUG_INFO_DBG_ADDR_INDEX) -- Value=0xE000EDF0  returns 0x00 (0000ms, 0703ms total)
T10C0 000:754 JLINK_GetDebugInfo(0x01 = Unknown) -- Value=0x00000000  returns 0x00 (0000ms, 0703ms total)
T10C0 000:754 JLINK_ReadMemU32(0xE000ED00, 0x0001 Items, ...) -- CPU_ReadMem(4 bytes @ 0xE000ED00) - Data: 31 C2 1F 41  returns 1 (0001ms, 0704ms total)
T10C0 000:755 JLINK_GetDebugInfo(0x10F = JLINKARM_DEBUG_INFO_HAS_CORTEX_M_SECURITY_EXT_INDEX) -- Value=0x00000000  returns 0x00 (0000ms, 0704ms total)
T10C0 000:755 JLINK_SetResetType(JLINKARM_CM3_RESET_TYPE_NORMAL)  returns JLINKARM_CM3_RESET_TYPE_NORMAL (0000ms, 0704ms total)
T10C0 000:755 JLINK_Reset() -- CPU is running -- CPU_WriteMem(4 bytes @ 0xE000EDF0) -- CPU is running -- CPU_WriteMem(4 bytes @ 0xE000EDFC)Reset: Halt core after reset via DEMCR.VC_CORERESET. >0x35 TIF>Reset: Reset device via AIRCR.SYSRESETREQ. -- CPU is running -- CPU_WriteMem(4 bytes @ 0xE000ED0C) >0x0D TIF> >0x28 TIF> -- CPU_ReadMem(4 bytes @ 0xE000EDF0) -- CPU_ReadMem(4 bytes @ 0xE000EDF0) -- CPU is running -- CPU_WriteMem(4 bytes @ 0xE000EDF0) -- CPU is running -- CPU_WriteMem(4 bytes @ 0xE000EDFC)
 -- CPU_ReadMem(4 bytes @ 0xE000EDF0) -- CPU_WriteMem(4 bytes @ 0xE0002000) -- CPU_ReadMem(4 bytes @ 0xE000EDFC) -- CPU_ReadMem(4 bytes @ 0xE0001000) (0077ms, 0781ms total)
T10C0 000:833 JLINK_Halt()  returns 0x00 (0000ms, 0781ms total)
T10C0 000:833 JLINK_ReadMemU32(0xE000EDF0, 0x0001 Items, ...) -- CPU_ReadMem(4 bytes @ 0xE000EDF0) - Data: 03 00 03 00  returns 1 (0000ms, 0781ms total)
T10C0 000:833 JLINK_WriteU32(0xE000EDF0, 0xA05F0003) -- CPU_WriteMem(4 bytes @ 0xE000EDF0)  returns 0 (0001ms, 0782ms total)
T10C0 000:834 JLINK_WriteU32(0xE000EDFC, 0x01000000) -- CPU_WriteMem(4 bytes @ 0xE000EDFC)  returns 0 (0000ms, 0782ms total)
T10C0 000:861 JLINK_GetHWStatus(...)  returns 0x00 (0001ms, 0783ms total)
T10C0 000:873 JLINK_GetNumBPUnits(Type = 0xFFFFFF00)  returns 0x06 (0000ms, 0783ms total)
T10C0 000:873 JLINK_GetNumBPUnits(Type = 0xF0)  returns 0x2000 (0000ms, 0783ms total)
T10C0 000:873 JLINK_GetNumWPUnits()  returns 0x04 (0000ms, 0783ms total)
T10C0 000:887 JLINK_GetSpeed()  returns 0xFA0 (0000ms, 0783ms total)
T10C0 000:894 JLINK_ReadMemU32(0xE000E004, 0x0001 Items, ...) -- CPU_ReadMem(4 bytes @ 0xE000E004) - Data: 01 00 00 00  returns 1 (0001ms, 0784ms total)
T10C0 000:895 JLINK_ReadMemU32(0xE000E004, 0x0001 Items, ...) -- CPU_ReadMem(4 bytes @ 0xE000E004) - Data: 01 00 00 00  returns 1 (0000ms, 0784ms total)
T10C0 000:895 JLINK_WriteMemEx(0xE0001000, 0x001C Bytes, ..., Flags = 0x02000004) - Data: 01 00 00 00 00 00 00 00 00 00 00 00 00 00 00 00 ... -- CPU_WriteMem(28 bytes @ 0xE0001000)  returns 0x1C (0001ms, 0785ms total)
T10C0 000:896 JLINK_Halt()  returns 0x00 (0000ms, 0785ms total)
T10C0 000:896 JLINK_IsHalted()  returns TRUE (0000ms, 0785ms total)
T10C0 000:903 JLINK_WriteMem(0x20000000, 0x0164 Bytes, ...) - Data: 00 BE 0A E0 0D 78 2D 06 68 40 08 24 40 00 00 D3 ... -- CPU_WriteMem(356 bytes @ 0x20000000)  returns 0x164 (0003ms, 0788ms total)
T10C0 000:907 JLINK_WriteReg(R0, 0x08000000)  returns 0x00 (0000ms, 0788ms total)
T10C0 000:907 JLINK_WriteReg(R1, 0x007A1200)  returns 0x00 (0000ms, 0788ms total)
T10C0 000:907 JLINK_WriteReg(R2, 0x00000001)  returns 0x00 (0000ms, 0788ms total)
T10C0 000:907 JLINK_WriteReg(R3, 0x00000000)  returns 0x00 (0000ms, 0788ms total)
T10C0 000:907 JLINK_WriteReg(R4, 0x00000000)  returns 0x00 (0000ms, 0788ms total)
T10C0 000:907 JLINK_WriteReg(R5, 0x00000000)  returns 0x00 (0000ms, 0788ms total)
T10C0 000:907 JLINK_WriteReg(R6, 0x00000000)  returns 0x00 (0000ms, 0788ms total)
T10C0 000:907 JLINK_WriteReg(R7, 0x00000000)  returns 0x00 (0000ms, 0788ms total)
T10C0 000:907 JLINK_WriteReg(R8, 0x00000000)  returns 0x00 (0000ms, 0788ms total)
T10C0 000:907 JLINK_WriteReg(R9, 0x20000160)  returns 0x00 (0000ms, 0788ms total)
T10C0 000:907 JLINK_WriteReg(R10, 0x00000000)  returns 0x00 (0000ms, 0788ms total)
T10C0 000:907 JLINK_WriteReg(R11, 0x00000000)  returns 0x00 (0000ms, 0788ms total)
T10C0 000:907 JLINK_WriteReg(R12, 0x00000000)  returns 0x00 (0000ms, 0788ms total)
T10C0 000:907 JLINK_WriteReg(R13 (SP), 0x20001000)  returns 0x00 (0000ms, 0788ms total)
T10C0 000:907 JLINK_WriteReg(R14, 0x20000001)  returns 0x00 (0000ms, 0788ms total)
T10C0 000:907 JLINK_WriteReg(R15 (PC), 0x20000038)  returns 0x00 (0000ms, 0788ms total)
T10C0 000:907 JLINK_WriteReg(XPSR, 0x01000000)  returns 0x00 (0000ms, 0788ms total)
T10C0 000:907 JLINK_WriteReg(MSP, 0x20001000)  returns 0x00 (0000ms, 0788ms total)
T10C0 000:907 JLINK_WriteReg(PSP, 0x20001000)  returns 0x00 (0000ms, 0788ms total)
T10C0 000:907 JLINK_WriteReg(CFBP, 0x00000000)  returns 0x00 (0000ms, 0788ms total)
T10C0 000:907 JLINK_SetBPEx(Addr = 0x20000000, Type = 0xFFFFFFF2) -- CPU_ReadMem(2 bytes @ 0x20000000)  returns 0x00000001 (0001ms, 0789ms total)
T10C0 000:908 JLINK_Go() -- CPU_WriteMem(2 bytes @ 0x20000000) -- CPU_ReadMem(4 bytes @ 0xE0001000) -- CPU_WriteMem(4 bytes @ 0xE0002008) -- CPU_WriteMem(4 bytes @ 0xE000200C) -- CPU_WriteMem(4 bytes @ 0xE0002010) -- CPU_WriteMem(4 bytes @ 0xE0002014) -- CPU_WriteMem(4 bytes @ 0xE0002018) -- CPU_WriteMem(4 bytes @ 0xE000201C) -- CPU_WriteMem(4 bytes @ 0xE0001004) (0004ms, 0793ms total)
T10C0 000:912 JLINK_IsHalted() -- CPU_ReadMem(2 bytes @ 0x20000000)  returns TRUE (0003ms, 0796ms total)
T10C0 000:915 JLINK_ReadReg(R15 (PC))  returns 0x20000000 (0000ms, 0793ms total)
T10C0 000:915 JLINK_ClrBPEx(BPHandle = 0x00000001)  returns 0x00 (0000ms, 0793ms total)
T10C0 000:915 JLINK_ReadReg(R0)  returns 0x00000000 (0000ms, 0793ms total)
T10C0 000:916 JLINK_WriteReg(R0, 0x08000000)  returns 0x00 (0000ms, 0793ms total)
T10C0 000:916 JLINK_WriteReg(R1, 0x007A1200)  returns 0x00 (0000ms, 0793ms total)
T10C0 000:916 JLINK_WriteReg(R2, 0x00000001)  returns 0x00 (0000ms, 0793ms total)
T10C0 000:916 JLINK_WriteReg(R3, 0x00000000)  returns 0x00 (0000ms, 0793ms total)
T10C0 000:917 JLINK_WriteReg(R4, 0x00000000)  returns 0x00 (0000ms, 0793ms total)
T10C0 000:917 JLINK_WriteReg(R5, 0x00000000)  returns 0x00 (0000ms, 0793ms total)
T10C0 000:917 JLINK_WriteReg(R6, 0x00000000)  returns 0x00 (0000ms, 0793ms total)
T10C0 000:917 JLINK_WriteReg(R7, 0x00000000)  returns 0x00 (0000ms, 0793ms total)
T10C0 000:917 JLINK_WriteReg(R8, 0x00000000)  returns 0x00 (0000ms, 0793ms total)
T10C0 000:917 JLINK_WriteReg(R9, 0x20000160)  returns 0x00 (0000ms, 0793ms total)
T10C0 000:917 JLINK_WriteReg(R10, 0x00000000)  returns 0x00 (0000ms, 0793ms total)
T10C0 000:917 JLINK_WriteReg(R11, 0x00000000)  returns 0x00 (0000ms, 0793ms total)
T10C0 000:917 JLINK_WriteReg(R12, 0x00000000)  returns 0x00 (0000ms, 0793ms total)
T10C0 000:917 JLINK_WriteReg(R13 (SP), 0x20001000)  returns 0x00 (0000ms, 0793ms total)
T10C0 000:917 JLINK_WriteReg(R14, 0x20000001)  returns 0x00 (0001ms, 0794ms total)
T10C0 000:918 JLINK_WriteReg(R15 (PC), 0x2000007C)  returns 0x00 (0000ms, 0794ms total)
T10C0 000:918 JLINK_WriteReg(XPSR, 0x01000000)  returns 0x00 (0000ms, 0794ms total)
T10C0 000:918 JLINK_WriteReg(MSP, 0x20001000)  returns 0x00 (0000ms, 0794ms total)
T10C0 000:918 JLINK_WriteReg(PSP, 0x20001000)  returns 0x00 (0000ms, 0794ms total)
T10C0 000:918 JLINK_WriteReg(CFBP, 0x00000000)  returns 0x00 (0000ms, 0794ms total)
T10C0 000:918 JLINK_SetBPEx(Addr = 0x20000000, Type = 0xFFFFFFF2)  returns 0x00000002 (0000ms, 0794ms total)
T10C0 000:918 JLINK_Go() -- CPU_ReadMem(4 bytes @ 0xE0001000) (0003ms, 0797ms total)
T10C0 000:921 JLINK_IsHalted()  returns FALSE (0000ms, 0797ms total)
T10C0 000:976 JLINK_IsHalted() -- CPU_ReadMem(2 bytes @ 0x20000000)  returns TRUE (0002ms, 0799ms total)
T10C0 000:978 JLINK_ReadReg(R15 (PC))  returns 0x20000000 (0000ms, 0797ms total)
T10C0 000:978 JLINK_ClrBPEx(BPHandle = 0x00000002)  returns 0x00 (0000ms, 0797ms total)
T10C0 000:978 JLINK_ReadReg(R0)  returns 0x00000000 (0000ms, 0797ms total)
T10C0 001:033 JLINK_WriteReg(R0, 0x00000001)  returns 0x00 (0001ms, 0798ms total)
T10C0 001:034 JLINK_WriteReg(R1, 0x007A1200)  returns 0x00 (0000ms, 0798ms total)
T10C0 001:034 JLINK_WriteReg(R2, 0x00000001)  returns 0x00 (0000ms, 0798ms total)
T10C0 001:034 JLINK_WriteReg(R3, 0x00000000)  returns 0x00 (0000ms, 0798ms total)
T10C0 001:034 JLINK_WriteReg(R4, 0x00000000)  returns 0x00 (0000ms, 0798ms total)
T10C0 001:034 JLINK_WriteReg(R5, 0x00000000)  returns 0x00 (0000ms, 0798ms total)
T10C0 001:034 JLINK_WriteReg(R6, 0x00000000)  returns 0x00 (0000ms, 0798ms total)
T10C0 001:034 JLINK_WriteReg(R7, 0x00000000)  returns 0x00 (0001ms, 0799ms total)
T10C0 001:035 JLINK_WriteReg(R8, 0x00000000)  returns 0x00 (0000ms, 0799ms total)
T10C0 001:035 JLINK_WriteReg(R9, 0x20000160)  returns 0x00 (0000ms, 0799ms total)
T10C0 001:035 JLINK_WriteReg(R10, 0x00000000)  returns 0x00 (0000ms, 0799ms total)
T10C0 001:035 JLINK_WriteReg(R11, 0x00000000)  returns 0x00 (0000ms, 0799ms total)
T10C0 001:035 JLINK_WriteReg(R12, 0x00000000)  returns 0x00 (0000ms, 0799ms total)
T10C0 001:035 JLINK_WriteReg(R13 (SP), 0x20001000)  returns 0x00 (0001ms, 0800ms total)
T10C0 001:036 JLINK_WriteReg(R14, 0x20000001)  returns 0x00 (0000ms, 0800ms total)
T10C0 001:036 JLINK_WriteReg(R15 (PC), 0x2000006A)  returns 0x00 (0000ms, 0800ms total)
T10C0 001:036 JLINK_WriteReg(XPSR, 0x01000000)  returns 0x00 (0000ms, 0800ms total)
T10C0 001:036 JLINK_WriteReg(MSP, 0x20001000)  returns 0x00 (0000ms, 0800ms total)
T10C0 001:036 JLINK_WriteReg(PSP, 0x20001000)  returns 0x00 (0000ms, 0800ms total)
T10C0 001:036 JLINK_WriteReg(CFBP, 0x00000000)  returns 0x00 (0000ms, 0800ms total)
T10C0 001:036 JLINK_SetBPEx(Addr = 0x20000000, Type = 0xFFFFFFF2)  returns 0x00000003 (0001ms, 0801ms total)
T10C0 001:037 JLINK_Go() -- CPU_ReadMem(4 bytes @ 0xE0001000) (0003ms, 0804ms total)
T10C0 001:040 JLINK_IsHalted() -- CPU_ReadMem(2 bytes @ 0x20000000)  returns TRUE (0003ms, 0807ms total)
T10C0 001:044 JLINK_ReadReg(R15 (PC))  returns 0x20000000 (0000ms, 0804ms total)
T10C0 001:044 JLINK_ClrBPEx(BPHandle = 0x00000003)  returns 0x00 (0000ms, 0804ms total)
T10C0 001:044 JLINK_ReadReg(R0)  returns 0x00000000 (0000ms, 0804ms total)
T10C0 001:064 JLINK_WriteMem(0x20000000, 0x0164 Bytes, ...) - Data: 00 BE 0A E0 0D 78 2D 06 68 40 08 24 40 00 00 D3 ... -- CPU_WriteMem(356 bytes @ 0x20000000)  returns 0x164 (0002ms, 0806ms total)
T10C0 001:066 JLINK_WriteReg(R0, 0x08000000)  returns 0x00 (0000ms, 0806ms total)
T10C0 001:066 JLINK_WriteReg(R1, 0x007A1200)  returns 0x00 (0000ms, 0806ms total)
T10C0 001:066 JLINK_WriteReg(R2, 0x00000002)  returns 0x00 (0000ms, 0806ms total)
T10C0 001:066 JLINK_WriteReg(R3, 0x00000000)  returns 0x00 (0000ms, 0806ms total)
T10C0 001:066 JLINK_WriteReg(R4, 0x00000000)  returns 0x00 (0000ms, 0806ms total)
T10C0 001:066 JLINK_WriteReg(R5, 0x00000000)  returns 0x00 (0000ms, 0806ms total)
T10C0 001:066 JLINK_WriteReg(R6, 0x00000000)  returns 0x00 (0000ms, 0806ms total)
T10C0 001:066 JLINK_WriteReg(R7, 0x00000000)  returns 0x00 (0000ms, 0806ms total)
T10C0 001:066 JLINK_WriteReg(R8, 0x00000000)  returns 0x00 (0000ms, 0806ms total)
T10C0 001:066 JLINK_WriteReg(R9, 0x20000160)  returns 0x00 (0000ms, 0806ms total)
T10C0 001:066 JLINK_WriteReg(R10, 0x00000000)  returns 0x00 (0000ms, 0806ms total)
T10C0 001:066 JLINK_WriteReg(R11, 0x00000000)  returns 0x00 (0000ms, 0806ms total)
T10C0 001:066 JLINK_WriteReg(R12, 0x00000000)  returns 0x00 (0000ms, 0806ms total)
T10C0 001:066 JLINK_WriteReg(R13 (SP), 0x20001000)  returns 0x00 (0000ms, 0806ms total)
T10C0 001:066 JLINK_WriteReg(R14, 0x20000001)  returns 0x00 (0000ms, 0806ms total)
T10C0 001:066 JLINK_WriteReg(R15 (PC), 0x20000038)  returns 0x00 (0001ms, 0807ms total)
T10C0 001:067 JLINK_WriteReg(XPSR, 0x01000000)  returns 0x00 (0000ms, 0807ms total)
T10C0 001:067 JLINK_WriteReg(MSP, 0x20001000)  returns 0x00 (0000ms, 0807ms total)
T10C0 001:067 JLINK_WriteReg(PSP, 0x20001000)  returns 0x00 (0000ms, 0807ms total)
T10C0 001:067 JLINK_WriteReg(CFBP, 0x00000000)  returns 0x00 (0000ms, 0807ms total)
T10C0 001:067 JLINK_SetBPEx(Addr = 0x20000000, Type = 0xFFFFFFF2) -- CPU_ReadMem(2 bytes @ 0x20000000)  returns 0x00000004 (0000ms, 0807ms total)
T10C0 001:067 JLINK_Go() -- CPU_WriteMem(2 bytes @ 0x20000000) -- CPU_ReadMem(4 bytes @ 0xE0001000) (0004ms, 0811ms total)
T10C0 001:071 JLINK_IsHalted() -- CPU_ReadMem(2 bytes @ 0x20000000)  returns TRUE (0002ms, 0813ms total)
T10C0 001:073 JLINK_ReadReg(R15 (PC))  returns 0x20000000 (0000ms, 0811ms total)
T10C0 001:073 JLINK_ClrBPEx(BPHandle = 0x00000004)  returns 0x00 (0000ms, 0811ms total)
T10C0 001:073 JLINK_ReadReg(R0)  returns 0x00000000 (0000ms, 0811ms total)
T10C0 001:074 JLINK_WriteMem(0x20000164, 0x029C Bytes, ...) - Data: 00 07 00 20 CD 01 00 08 AB 0F 00 08 03 0F 00 08 ... -- CPU_WriteMem(668 bytes @ 0x20000164)  returns 0x29C (0003ms, 0814ms total)
T10C0 001:077 JLINK_WriteMem(0x20000400, 0x0164 Bytes, ...) - Data: 07 01 AC 46 AC E8 C0 09 AC E8 C0 09 AC E8 C0 09 ... -- CPU_WriteMem(356 bytes @ 0x20000400)  returns 0x164 (0002ms, 0816ms total)
T10C0 001:079 JLINK_WriteReg(R0, 0x08000000)  returns 0x00 (0000ms, 0816ms total)
T10C0 001:079 JLINK_WriteReg(R1, 0x00000400)  returns 0x00 (0000ms, 0816ms total)
T10C0 001:079 JLINK_WriteReg(R2, 0x20000164)  returns 0x00 (0000ms, 0816ms total)
T10C0 001:079 JLINK_WriteReg(R3, 0x00000000)  returns 0x00 (0000ms, 0816ms total)
T10C0 001:079 JLINK_WriteReg(R4, 0x00000000)  returns 0x00 (0000ms, 0816ms total)
T10C0 001:079 JLINK_WriteReg(R5, 0x00000000)  returns 0x00 (0000ms, 0816ms total)
T10C0 001:079 JLINK_WriteReg(R6, 0x00000000)  returns 0x00 (0000ms, 0816ms total)
T10C0 001:079 JLINK_WriteReg(R7, 0x00000000)  returns 0x00 (0000ms, 0816ms total)
T10C0 001:079 JLINK_WriteReg(R8, 0x00000000)  returns 0x00 (0000ms, 0816ms total)
T10C0 001:079 JLINK_WriteReg(R9, 0x20000160)  returns 0x00 (0000ms, 0816ms total)
T10C0 001:079 JLINK_WriteReg(R10, 0x00000000)  returns 0x00 (0000ms, 0816ms total)
T10C0 001:079 JLINK_WriteReg(R11, 0x00000000)  returns 0x00 (0000ms, 0816ms total)
T10C0 001:079 JLINK_WriteReg(R12, 0x00000000)  returns 0x00 (0000ms, 0816ms total)
T10C0 001:079 JLINK_WriteReg(R13 (SP), 0x20001000)  returns 0x00 (0000ms, 0816ms total)
T10C0 001:079 JLINK_WriteReg(R14, 0x20000001)  returns 0x00 (0000ms, 0816ms total)
T10C0 001:079 JLINK_WriteReg(R15 (PC), 0x200000F4)  returns 0x00 (0000ms, 0816ms total)
T10C0 001:079 JLINK_WriteReg(XPSR, 0x01000000)  returns 0x00 (0000ms, 0816ms total)
T10C0 001:079 JLINK_WriteReg(MSP, 0x20001000)  returns 0x00 (0000ms, 0816ms total)
T10C0 001:079 JLINK_WriteReg(PSP, 0x20001000)  returns 0x00 (0000ms, 0816ms total)
T10C0 001:079 JLINK_WriteReg(CFBP, 0x00000000)  returns 0x00 (0000ms, 0816ms total)
T10C0 001:079 JLINK_SetBPEx(Addr = 0x20000000, Type = 0xFFFFFFF2)  returns 0x00000005 (0000ms, 0816ms total)
T10C0 001:079 JLINK_Go() -- CPU_ReadMem(4 bytes @ 0xE0001000) (0003ms, 0819ms total)
T10C0 001:082 JLINK_IsHalted()  returns FALSE (0000ms, 0819ms total)
T10C0 001:092 JLINK_IsHalted()  returns FALSE (0000ms, 0819ms total)
T10C0 001:094 JLINK_IsHalted()  returns FALSE (0000ms, 0819ms total)
T10C0 001:096 JLINK_IsHalted()  returns FALSE (0000ms, 0819ms total)
T10C0 001:098 JLINK_IsHalted()  returns FALSE (0000ms, 0819ms total)
T10C0 001:100 JLINK_IsHalted()  returns FALSE (0000ms, 0819ms total)
T10C0 001:102 JLINK_IsHalted()  returns FALSE (0001ms, 0820ms total)
T10C0 001:105 JLINK_IsHalted()  returns FALSE (0001ms, 0820ms total)
T10C0 001:108 JLINK_IsHalted()  returns FALSE (0000ms, 0819ms total)
T10C0 001:110 JLINK_IsHalted()  returns FALSE (0000ms, 0819ms total)
T10C0 001:112 JLINK_IsHalted()  returns FALSE (0000ms, 0819ms total)
T10C0 001:114 JLINK_IsHalted() -- CPU_ReadMem(2 bytes @ 0x20000000)  returns TRUE (0003ms, 0822ms total)
T10C0 001:117 JLINK_ReadReg(R15 (PC))  returns 0x20000000 (0000ms, 0819ms total)
T10C0 001:117 JLINK_ClrBPEx(BPHandle = 0x00000005)  returns 0x00 (0000ms, 0819ms total)
T10C0 001:117 JLINK_ReadReg(R0)  returns 0x00000000 (0000ms, 0819ms total)
T10C0 001:118 JLINK_WriteMem(0x20000164, 0x029C Bytes, ...) - Data: BD E8 F0 9F 80 00 02 40 08 04 02 40 70 B5 04 46 ... -- CPU_WriteMem(668 bytes @ 0x20000164)  returns 0x29C (0003ms, 0822ms total)
T10C0 001:121 JLINK_WriteMem(0x20000400, 0x0164 Bytes, ...) - Data: 00 F0 36 F8 00 20 6C 60 70 BD 01 20 70 BD 00 00 ... -- CPU_WriteMem(356 bytes @ 0x20000400)  returns 0x164 (0002ms, 0824ms total)
T10C0 001:123 JLINK_WriteReg(R0, 0x08000400)  returns 0x00 (0000ms, 0824ms total)
T10C0 001:123 JLINK_WriteReg(R1, 0x00000400)  returns 0x00 (0000ms, 0824ms total)
T10C0 001:123 JLINK_WriteReg(R2, 0x20000164)  returns 0x00 (0000ms, 0824ms total)
T10C0 001:123 JLINK_WriteReg(R3, 0x00000000)  returns 0x00 (0000ms, 0824ms total)
T10C0 001:123 JLINK_WriteReg(R4, 0x00000000)  returns 0x00 (0000ms, 0824ms total)
T10C0 001:123 JLINK_WriteReg(R5, 0x00000000)  returns 0x00 (0000ms, 0824ms total)
T10C0 001:123 JLINK_WriteReg(R6, 0x00000000)  returns 0x00 (0000ms, 0824ms total)
T10C0 001:123 JLINK_WriteReg(R7, 0x00000000)  returns 0x00 (0000ms, 0824ms total)
T10C0 001:123 JLINK_WriteReg(R8, 0x00000000)  returns 0x00 (0000ms, 0824ms total)
T10C0 001:123 JLINK_WriteReg(R9, 0x20000160)  returns 0x00 (0000ms, 0824ms total)
T10C0 001:123 JLINK_WriteReg(R10, 0x00000000)  returns 0x00 (0000ms, 0824ms total)
T10C0 001:123 JLINK_WriteReg(R11, 0x00000000)  returns 0x00 (0000ms, 0824ms total)
T10C0 001:123 JLINK_WriteReg(R12, 0x00000000)  returns 0x00 (0000ms, 0824ms total)
T10C0 001:123 JLINK_WriteReg(R13 (SP), 0x20001000)  returns 0x00 (0000ms, 0824ms total)
T10C0 001:123 JLINK_WriteReg(R14, 0x20000001)  returns 0x00 (0000ms, 0824ms total)
T10C0 001:123 JLINK_WriteReg(R15 (PC), 0x200000F4)  returns 0x00 (0001ms, 0825ms total)
T10C0 001:124 JLINK_WriteReg(XPSR, 0x01000000)  returns 0x00 (0000ms, 0825ms total)
T10C0 001:124 JLINK_WriteReg(MSP, 0x20001000)  returns 0x00 (0000ms, 0825ms total)
T10C0 001:124 JLINK_WriteReg(PSP, 0x20001000)  returns 0x00 (0000ms, 0825ms total)
T10C0 001:124 JLINK_WriteReg(CFBP, 0x00000000)  returns 0x00 (0000ms, 0825ms total)
T10C0 001:124 JLINK_SetBPEx(Addr = 0x20000000, Type = 0xFFFFFFF2)  returns 0x00000006 (0000ms, 0825ms total)
T10C0 001:124 JLINK_Go() -- CPU_ReadMem(4 bytes @ 0xE0001000) (0003ms, 0828ms total)
T10C0 001:127 JLINK_IsHalted()  returns FALSE (0000ms, 0828ms total)
T10C0 001:129 JLINK_IsHalted()  returns FALSE (0000ms, 0828ms total)
T10C0 001:131 JLINK_IsHalted()  returns FALSE (0000ms, 0828ms total)
T10C0 001:133 JLINK_IsHalted()  returns FALSE (0000ms, 0828ms total)
T10C0 001:135 JLINK_IsHalted()  returns FALSE (0000ms, 0828ms total)
T10C0 001:137 JLINK_IsHalted()  returns FALSE (0000ms, 0828ms total)
T10C0 001:139 JLINK_IsHalted()  returns FALSE (0000ms, 0828ms total)
T10C0 001:141 JLINK_IsHalted()  returns FALSE (0000ms, 0828ms total)
T10C0 001:143 JLINK_IsHalted()  returns FALSE (0001ms, 0829ms total)
T10C0 001:145 JLINK_IsHalted()  returns FALSE (0000ms, 0828ms total)
T10C0 001:147 JLINK_IsHalted()  returns FALSE (0000ms, 0828ms total)
T10C0 001:149 JLINK_IsHalted()  returns FALSE (0000ms, 0828ms total)
T10C0 001:151 JLINK_IsHalted()  returns FALSE (0000ms, 0828ms total)
T10C0 001:155 JLINK_IsHalted()  returns FALSE (0000ms, 0828ms total)
T10C0 001:157 JLINK_IsHalted()  returns FALSE (0000ms, 0828ms total)
T10C0 001:159 JLINK_IsHalted() -- CPU_ReadMem(2 bytes @ 0x20000000)  returns TRUE (0002ms, 0830ms total)
T10C0 001:162 JLINK_ReadReg(R15 (PC))  returns 0x20000000 (0000ms, 0828ms total)
T10C0 001:162 JLINK_ClrBPEx(BPHandle = 0x00000006)  returns 0x00 (0000ms, 0828ms total)
T10C0 001:162 JLINK_ReadReg(R0)  returns 0x00000000 (0000ms, 0828ms total)
T10C0 001:162 JLINK_WriteMem(0x20000164, 0x029C Bytes, ...) - Data: FF F7 18 FF A0 EB 08 01 49 45 02 D9 03 20 BD E8 ... -- CPU_WriteMem(668 bytes @ 0x20000164)  returns 0x29C (0003ms, 0831ms total)
T10C0 001:165 JLINK_WriteMem(0x20000400, 0x0164 Bytes, ...) - Data: 08 D4 E8 69 40 F0 80 50 E8 61 E8 69 01 27 00 F0 ... -- CPU_WriteMem(356 bytes @ 0x20000400)  returns 0x164 (0002ms, 0833ms total)
T10C0 001:167 JLINK_WriteReg(R0, 0x08000800)  returns 0x00 (0000ms, 0833ms total)
T10C0 001:167 JLINK_WriteReg(R1, 0x00000400)  returns 0x00 (0000ms, 0833ms total)
T10C0 001:167 JLINK_WriteReg(R2, 0x20000164)  returns 0x00 (0000ms, 0833ms total)
T10C0 001:167 JLINK_WriteReg(R3, 0x00000000)  returns 0x00 (0000ms, 0833ms total)
T10C0 001:167 JLINK_WriteReg(R4, 0x00000000)  returns 0x00 (0000ms, 0833ms total)
T10C0 001:167 JLINK_WriteReg(R5, 0x00000000)  returns 0x00 (0000ms, 0833ms total)
T10C0 001:167 JLINK_WriteReg(R6, 0x00000000)  returns 0x00 (0000ms, 0833ms total)
T10C0 001:167 JLINK_WriteReg(R7, 0x00000000)  returns 0x00 (0000ms, 0833ms total)
T10C0 001:167 JLINK_WriteReg(R8, 0x00000000)  returns 0x00 (0000ms, 0833ms total)
T10C0 001:167 JLINK_WriteReg(R9, 0x20000160)  returns 0x00 (0000ms, 0833ms total)
T10C0 001:167 JLINK_WriteReg(R10, 0x00000000)  returns 0x00 (0000ms, 0833ms total)
T10C0 001:167 JLINK_WriteReg(R11, 0x00000000)  returns 0x00 (0000ms, 0833ms total)
T10C0 001:167 JLINK_WriteReg(R12, 0x00000000)  returns 0x00 (0000ms, 0833ms total)
T10C0 001:167 JLINK_WriteReg(R13 (SP), 0x20001000)  returns 0x00 (0000ms, 0833ms total)
T10C0 001:167 JLINK_WriteReg(R14, 0x20000001)  returns 0x00 (0000ms, 0833ms total)
T10C0 001:167 JLINK_WriteReg(R15 (PC), 0x200000F4)  returns 0x00 (0000ms, 0833ms total)
T10C0 001:167 JLINK_WriteReg(XPSR, 0x01000000)  returns 0x00 (0000ms, 0833ms total)
T10C0 001:167 JLINK_WriteReg(MSP, 0x20001000)  returns 0x00 (0000ms, 0833ms total)
T10C0 001:167 JLINK_WriteReg(PSP, 0x20001000)  returns 0x00 (0001ms, 0834ms total)
T10C0 001:168 JLINK_WriteReg(CFBP, 0x00000000)  returns 0x00 (0000ms, 0834ms total)
T10C0 001:168 JLINK_SetBPEx(Addr = 0x20000000, Type = 0xFFFFFFF2)  returns 0x00000007 (0000ms, 0834ms total)
T10C0 001:168 JLINK_Go() -- CPU_ReadMem(4 bytes @ 0xE0001000) (0002ms, 0836ms total)
T10C0 001:170 JLINK_IsHalted()  returns FALSE (0001ms, 0837ms total)
T10C0 001:173 JLINK_IsHalted()  returns FALSE (0000ms, 0836ms total)
T10C0 001:175 JLINK_IsHalted()  returns FALSE (0000ms, 0836ms total)
T10C0 001:177 JLINK_IsHalted()  returns FALSE (0000ms, 0836ms total)
T10C0 001:179 JLINK_IsHalted()  returns FALSE (0000ms, 0836ms total)
T10C0 001:181 JLINK_IsHalted()  returns FALSE (0000ms, 0836ms total)
T10C0 001:183 JLINK_IsHalted()  returns FALSE (0001ms, 0837ms total)
T10C0 001:186 JLINK_IsHalted()  returns FALSE (0000ms, 0836ms total)
T10C0 001:188 JLINK_IsHalted()  returns FALSE (0000ms, 0836ms total)
T10C0 001:190 JLINK_IsHalted()  returns FALSE (0000ms, 0836ms total)
T10C0 001:192 JLINK_IsHalted()  returns FALSE (0000ms, 0836ms total)
T10C0 001:194 JLINK_IsHalted()  returns FALSE (0000ms, 0836ms total)
T10C0 001:196 JLINK_IsHalted()  returns FALSE (0000ms, 0836ms total)
T10C0 001:200 JLINK_IsHalted()  returns FALSE (0000ms, 0836ms total)
T10C0 001:203 JLINK_IsHalted() -- CPU_ReadMem(2 bytes @ 0x20000000)  returns TRUE (0002ms, 0838ms total)
T10C0 001:205 JLINK_ReadReg(R15 (PC))  returns 0x20000000 (0000ms, 0836ms total)
T10C0 001:205 JLINK_ClrBPEx(BPHandle = 0x00000007)  returns 0x00 (0000ms, 0836ms total)
T10C0 001:205 JLINK_ReadReg(R0)  returns 0x00000000 (0000ms, 0836ms total)
T10C0 001:206 JLINK_WriteMem(0x20000164, 0x029C Bytes, ...) - Data: 61 6A 00 F4 70 10 88 42 01 D0 01 20 EA E7 00 20 ... -- CPU_WriteMem(668 bytes @ 0x20000164)  returns 0x29C (0003ms, 0839ms total)
T10C0 001:209 JLINK_WriteMem(0x20000400, 0x0164 Bytes, ...) - Data: 0A 68 22 F0 40 02 0A 60 01 68 0A 68 42 F4 80 42 ... -- CPU_WriteMem(356 bytes @ 0x20000400)  returns 0x164 (0002ms, 0841ms total)
T10C0 001:211 JLINK_WriteReg(R0, 0x08000C00)  returns 0x00 (0000ms, 0841ms total)
T10C0 001:211 JLINK_WriteReg(R1, 0x00000400)  returns 0x00 (0000ms, 0841ms total)
T10C0 001:211 JLINK_WriteReg(R2, 0x20000164)  returns 0x00 (0000ms, 0841ms total)
T10C0 001:211 JLINK_WriteReg(R3, 0x00000000)  returns 0x00 (0000ms, 0841ms total)
T10C0 001:211 JLINK_WriteReg(R4, 0x00000000)  returns 0x00 (0000ms, 0841ms total)
T10C0 001:211 JLINK_WriteReg(R5, 0x00000000)  returns 0x00 (0000ms, 0841ms total)
T10C0 001:211 JLINK_WriteReg(R6, 0x00000000)  returns 0x00 (0000ms, 0841ms total)
T10C0 001:211 JLINK_WriteReg(R7, 0x00000000)  returns 0x00 (0000ms, 0841ms total)
T10C0 001:211 JLINK_WriteReg(R8, 0x00000000)  returns 0x00 (0000ms, 0841ms total)
T10C0 001:211 JLINK_WriteReg(R9, 0x20000160)  returns 0x00 (0000ms, 0841ms total)
T10C0 001:211 JLINK_WriteReg(R10, 0x00000000)  returns 0x00 (0000ms, 0841ms total)
T10C0 001:211 JLINK_WriteReg(R11, 0x00000000)  returns 0x00 (0000ms, 0841ms total)
T10C0 001:211 JLINK_WriteReg(R12, 0x00000000)  returns 0x00 (0000ms, 0841ms total)
T10C0 001:211 JLINK_WriteReg(R13 (SP), 0x20001000)  returns 0x00 (0000ms, 0841ms total)
T10C0 001:211 JLINK_WriteReg(R14, 0x20000001)  returns 0x00 (0000ms, 0841ms total)
T10C0 001:211 JLINK_WriteReg(R15 (PC), 0x200000F4)  returns 0x00 (0001ms, 0842ms total)
T10C0 001:212 JLINK_WriteReg(XPSR, 0x01000000)  returns 0x00 (0000ms, 0842ms total)
T10C0 001:212 JLINK_WriteReg(MSP, 0x20001000)  returns 0x00 (0000ms, 0842ms total)
T10C0 001:212 JLINK_WriteReg(PSP, 0x20001000)  returns 0x00 (0000ms, 0842ms total)
T10C0 001:212 JLINK_WriteReg(CFBP, 0x00000000)  returns 0x00 (0000ms, 0842ms total)
T10C0 001:212 JLINK_SetBPEx(Addr = 0x20000000, Type = 0xFFFFFFF2)  returns 0x00000008 (0000ms, 0842ms total)
T10C0 001:212 JLINK_Go() -- CPU_ReadMem(4 bytes @ 0xE0001000) (0003ms, 0845ms total)
T10C0 001:215 JLINK_IsHalted()  returns FALSE (0000ms, 0845ms total)
T10C0 001:218 JLINK_IsHalted()  returns FALSE (0001ms, 0846ms total)
T10C0 001:220 JLINK_IsHalted()  returns FALSE (0001ms, 0846ms total)
T10C0 001:222 JLINK_IsHalted()  returns FALSE (0000ms, 0845ms total)
T10C0 001:224 JLINK_IsHalted()  returns FALSE (0000ms, 0845ms total)
T10C0 001:226 JLINK_IsHalted()  returns FALSE (0000ms, 0845ms total)
T10C0 001:228 JLINK_IsHalted()  returns FALSE (0000ms, 0845ms total)
T10C0 001:230 JLINK_IsHalted()  returns FALSE (0000ms, 0845ms total)
T10C0 001:232 JLINK_IsHalted()  returns FALSE (0000ms, 0845ms total)
T10C0 001:234 JLINK_IsHalted()  returns FALSE (0000ms, 0845ms total)
T10C0 001:236 JLINK_IsHalted()  returns FALSE (0000ms, 0845ms total)
T10C0 001:238 JLINK_IsHalted()  returns FALSE (0000ms, 0845ms total)
T10C0 001:240 JLINK_IsHalted()  returns FALSE (0000ms, 0845ms total)
T10C0 001:242 JLINK_IsHalted()  returns FALSE (0000ms, 0845ms total)
T10C0 001:244 JLINK_IsHalted()  returns FALSE (0000ms, 0845ms total)
T10C0 001:251 JLINK_IsHalted() -- CPU_ReadMem(2 bytes @ 0x20000000)  returns TRUE (0002ms, 0847ms total)
T10C0 001:253 JLINK_ReadReg(R15 (PC))  returns 0x20000000 (0000ms, 0845ms total)
T10C0 001:253 JLINK_ClrBPEx(BPHandle = 0x00000008)  returns 0x00 (0000ms, 0845ms total)
T10C0 001:253 JLINK_ReadReg(R0)  returns 0x00000000 (0000ms, 0845ms total)
T10C0 001:254 JLINK_WriteMem(0x20000164, 0x029C Bytes, ...) - Data: 60 65 A0 68 28 B1 08 E0 61 6D 41 F0 20 01 61 65 ... -- CPU_WriteMem(668 bytes @ 0x20000164)  returns 0x29C (0003ms, 0848ms total)
T10C0 001:257 JLINK_WriteMem(0x20000400, 0x0164 Bytes, ...) - Data: 8D F8 00 00 8D F8 01 60 20 0A 8D F8 02 00 8D F8 ... -- CPU_WriteMem(356 bytes @ 0x20000400)  returns 0x164 (0003ms, 0851ms total)
T10C0 001:260 JLINK_WriteReg(R0, 0x08001000)  returns 0x00 (0000ms, 0851ms total)
T10C0 001:260 JLINK_WriteReg(R1, 0x00000400)  returns 0x00 (0000ms, 0851ms total)
T10C0 001:260 JLINK_WriteReg(R2, 0x20000164)  returns 0x00 (0000ms, 0851ms total)
T10C0 001:260 JLINK_WriteReg(R3, 0x00000000)  returns 0x00 (0000ms, 0851ms total)
T10C0 001:260 JLINK_WriteReg(R4, 0x00000000)  returns 0x00 (0000ms, 0851ms total)
T10C0 001:260 JLINK_WriteReg(R5, 0x00000000)  returns 0x00 (0000ms, 0851ms total)
T10C0 001:260 JLINK_WriteReg(R6, 0x00000000)  returns 0x00 (0000ms, 0851ms total)
T10C0 001:260 JLINK_WriteReg(R7, 0x00000000)  returns 0x00 (0000ms, 0851ms total)
T10C0 001:260 JLINK_WriteReg(R8, 0x00000000)  returns 0x00 (0000ms, 0851ms total)
T10C0 001:260 JLINK_WriteReg(R9, 0x20000160)  returns 0x00 (0000ms, 0851ms total)
T10C0 001:260 JLINK_WriteReg(R10, 0x00000000)  returns 0x00 (0000ms, 0851ms total)
T10C0 001:260 JLINK_WriteReg(R11, 0x00000000)  returns 0x00 (0000ms, 0851ms total)
T10C0 001:260 JLINK_WriteReg(R12, 0x00000000)  returns 0x00 (0000ms, 0851ms total)
T10C0 001:260 JLINK_WriteReg(R13 (SP), 0x20001000)  returns 0x00 (0000ms, 0851ms total)
T10C0 001:260 JLINK_WriteReg(R14, 0x20000001)  returns 0x00 (0000ms, 0851ms total)
T10C0 001:260 JLINK_WriteReg(R15 (PC), 0x200000F4)  returns 0x00 (0000ms, 0851ms total)
T10C0 001:260 JLINK_WriteReg(XPSR, 0x01000000)  returns 0x00 (0000ms, 0851ms total)
T10C0 001:260 JLINK_WriteReg(MSP, 0x20001000)  returns 0x00 (0000ms, 0851ms total)
T10C0 001:260 JLINK_WriteReg(PSP, 0x20001000)  returns 0x00 (0000ms, 0851ms total)
T10C0 001:260 JLINK_WriteReg(CFBP, 0x00000000)  returns 0x00 (0000ms, 0851ms total)
T10C0 001:260 JLINK_SetBPEx(Addr = 0x20000000, Type = 0xFFFFFFF2)  returns 0x00000009 (0000ms, 0851ms total)
T10C0 001:260 JLINK_Go() -- CPU_ReadMem(4 bytes @ 0xE0001000) (0003ms, 0854ms total)
T10C0 001:263 JLINK_IsHalted()  returns FALSE (0000ms, 0854ms total)
T10C0 001:267 JLINK_IsHalted()  returns FALSE (0000ms, 0854ms total)
T10C0 001:269 JLINK_IsHalted()  returns FALSE (0000ms, 0854ms total)
T10C0 001:271 JLINK_IsHalted()  returns FALSE (0000ms, 0854ms total)
T10C0 001:273 JLINK_IsHalted()  returns FALSE (0000ms, 0854ms total)
T10C0 001:275 JLINK_IsHalted()  returns FALSE (0000ms, 0854ms total)
T10C0 001:280 JLINK_IsHalted()  returns FALSE (0001ms, 0855ms total)
T10C0 001:282 JLINK_IsHalted()  returns FALSE (0000ms, 0854ms total)
T10C0 001:285 JLINK_IsHalted()  returns FALSE (0000ms, 0854ms total)
T10C0 001:287 JLINK_IsHalted()  returns FALSE (0000ms, 0854ms total)
T10C0 001:289 JLINK_IsHalted()  returns FALSE (0000ms, 0854ms total)
T10C0 001:291 JLINK_IsHalted()  returns FALSE (0000ms, 0854ms total)
T10C0 001:297 JLINK_IsHalted() -- CPU_ReadMem(2 bytes @ 0x20000000)  returns TRUE (0002ms, 0856ms total)
T10C0 001:299 JLINK_ReadReg(R15 (PC))  returns 0x20000000 (0000ms, 0854ms total)
T10C0 001:299 JLINK_ClrBPEx(BPHandle = 0x00000009)  returns 0x00 (0000ms, 0854ms total)
T10C0 001:299 JLINK_ReadReg(R0)  returns 0x00000000 (0000ms, 0854ms total)
T10C0 001:299 JLINK_WriteMem(0x20000164, 0x029C Bytes, ...) - Data: 68 46 FF F7 5D FF 3E 20 8D F8 00 00 28 20 8D F8 ... -- CPU_WriteMem(668 bytes @ 0x20000164)  returns 0x29C (0004ms, 0858ms total)
T10C0 001:303 JLINK_WriteMem(0x20000400, 0x0164 Bytes, ...) - Data: 7D AC 7D AC 7D AD 75 AD 75 AD 75 AC 75 AD 75 AD ... -- CPU_WriteMem(356 bytes @ 0x20000400)  returns 0x164 (0002ms, 0860ms total)
T10C0 001:305 JLINK_WriteReg(R0, 0x08001400)  returns 0x00 (0000ms, 0860ms total)
T10C0 001:305 JLINK_WriteReg(R1, 0x00000400)  returns 0x00 (0000ms, 0860ms total)
T10C0 001:305 JLINK_WriteReg(R2, 0x20000164)  returns 0x00 (0000ms, 0860ms total)
T10C0 001:305 JLINK_WriteReg(R3, 0x00000000)  returns 0x00 (0000ms, 0860ms total)
T10C0 001:305 JLINK_WriteReg(R4, 0x00000000)  returns 0x00 (0000ms, 0860ms total)
T10C0 001:305 JLINK_WriteReg(R5, 0x00000000)  returns 0x00 (0001ms, 0861ms total)
T10C0 001:306 JLINK_WriteReg(R6, 0x00000000)  returns 0x00 (0000ms, 0861ms total)
T10C0 001:306 JLINK_WriteReg(R7, 0x00000000)  returns 0x00 (0000ms, 0861ms total)
T10C0 001:306 JLINK_WriteReg(R8, 0x00000000)  returns 0x00 (0000ms, 0861ms total)
T10C0 001:306 JLINK_WriteReg(R9, 0x20000160)  returns 0x00 (0000ms, 0861ms total)
T10C0 001:306 JLINK_WriteReg(R10, 0x00000000)  returns 0x00 (0000ms, 0861ms total)
T10C0 001:306 JLINK_WriteReg(R11, 0x00000000)  returns 0x00 (0000ms, 0861ms total)
T10C0 001:306 JLINK_WriteReg(R12, 0x00000000)  returns 0x00 (0000ms, 0861ms total)
T10C0 001:306 JLINK_WriteReg(R13 (SP), 0x20001000)  returns 0x00 (0000ms, 0861ms total)
T10C0 001:306 JLINK_WriteReg(R14, 0x20000001)  returns 0x00 (0000ms, 0861ms total)
T10C0 001:306 JLINK_WriteReg(R15 (PC), 0x200000F4)  returns 0x00 (0000ms, 0861ms total)
T10C0 001:306 JLINK_WriteReg(XPSR, 0x01000000)  returns 0x00 (0000ms, 0861ms total)
T10C0 001:306 JLINK_WriteReg(MSP, 0x20001000)  returns 0x00 (0000ms, 0861ms total)
T10C0 001:306 JLINK_WriteReg(PSP, 0x20001000)  returns 0x00 (0000ms, 0861ms total)
T10C0 001:306 JLINK_WriteReg(CFBP, 0x00000000)  returns 0x00 (0000ms, 0861ms total)
T10C0 001:306 JLINK_SetBPEx(Addr = 0x20000000, Type = 0xFFFFFFF2)  returns 0x0000000A (0000ms, 0861ms total)
T10C0 001:306 JLINK_Go() -- CPU_ReadMem(4 bytes @ 0xE0001000) (0002ms, 0863ms total)
T10C0 001:308 JLINK_IsHalted()  returns FALSE (0001ms, 0864ms total)
T10C0 001:311 JLINK_IsHalted()  returns FALSE (0000ms, 0863ms total)
T10C0 001:313 JLINK_IsHalted()  returns FALSE (0000ms, 0863ms total)
T10C0 001:315 JLINK_IsHalted()  returns FALSE (0000ms, 0863ms total)
T10C0 001:317 JLINK_IsHalted()  returns FALSE (0000ms, 0863ms total)
T10C0 001:319 JLINK_IsHalted()  returns FALSE (0000ms, 0863ms total)
T10C0 001:321 JLINK_IsHalted()  returns FALSE (0000ms, 0863ms total)
T10C0 001:323 JLINK_IsHalted()  returns FALSE (0000ms, 0863ms total)
T10C0 001:325 JLINK_IsHalted()  returns FALSE (0000ms, 0863ms total)
T10C0 001:327 JLINK_IsHalted()  returns FALSE (0000ms, 0863ms total)
T10C0 001:329 JLINK_IsHalted()  returns FALSE (0000ms, 0863ms total)
T10C0 001:331 JLINK_IsHalted()  returns FALSE (0000ms, 0863ms total)
T10C0 001:333 JLINK_IsHalted()  returns FALSE (0000ms, 0863ms total)
T10C0 001:335 JLINK_IsHalted()  returns FALSE (0000ms, 0863ms total)
T10C0 001:337 JLINK_IsHalted()  returns FALSE (0000ms, 0863ms total)
T10C0 001:339 JLINK_IsHalted() -- CPU_ReadMem(2 bytes @ 0x20000000)  returns TRUE (0003ms, 0866ms total)
T10C0 001:342 JLINK_ReadReg(R15 (PC))  returns 0x20000000 (0000ms, 0863ms total)
T10C0 001:342 JLINK_ClrBPEx(BPHandle = 0x0000000A)  returns 0x00 (0000ms, 0863ms total)
T10C0 001:342 JLINK_ReadReg(R0)  returns 0x00000000 (0000ms, 0863ms total)
T10C0 001:342 JLINK_WriteMem(0x20000164, 0x029C Bytes, ...) - Data: C5 EA BE 0A C6 0A C6 0A C6 09 C6 0A C6 0A C6 0A ... -- CPU_WriteMem(668 bytes @ 0x20000164)  returns 0x29C (0003ms, 0866ms total)
T10C0 001:345 JLINK_WriteMem(0x20000400, 0x0164 Bytes, ...) - Data: 65 8D 65 8D 65 8D 65 8D 65 8D 65 8D 65 8D 65 8D ... -- CPU_WriteMem(356 bytes @ 0x20000400)  returns 0x164 (0002ms, 0868ms total)
T10C0 001:347 JLINK_WriteReg(R0, 0x08001800)  returns 0x00 (0000ms, 0868ms total)
T10C0 001:347 JLINK_WriteReg(R1, 0x00000400)  returns 0x00 (0000ms, 0868ms total)
T10C0 001:347 JLINK_WriteReg(R2, 0x20000164)  returns 0x00 (0000ms, 0868ms total)
T10C0 001:347 JLINK_WriteReg(R3, 0x00000000)  returns 0x00 (0000ms, 0868ms total)
T10C0 001:347 JLINK_WriteReg(R4, 0x00000000)  returns 0x00 (0000ms, 0868ms total)
T10C0 001:347 JLINK_WriteReg(R5, 0x00000000)  returns 0x00 (0000ms, 0868ms total)
T10C0 001:347 JLINK_WriteReg(R6, 0x00000000)  returns 0x00 (0000ms, 0868ms total)
T10C0 001:347 JLINK_WriteReg(R7, 0x00000000)  returns 0x00 (0000ms, 0868ms total)
T10C0 001:347 JLINK_WriteReg(R8, 0x00000000)  returns 0x00 (0000ms, 0868ms total)
T10C0 001:347 JLINK_WriteReg(R9, 0x20000160)  returns 0x00 (0000ms, 0868ms total)
T10C0 001:347 JLINK_WriteReg(R10, 0x00000000)  returns 0x00 (0000ms, 0868ms total)
T10C0 001:347 JLINK_WriteReg(R11, 0x00000000)  returns 0x00 (0000ms, 0868ms total)
T10C0 001:347 JLINK_WriteReg(R12, 0x00000000)  returns 0x00 (0000ms, 0868ms total)
T10C0 001:347 JLINK_WriteReg(R13 (SP), 0x20001000)  returns 0x00 (0000ms, 0868ms total)
T10C0 001:348 JLINK_WriteReg(R14, 0x20000001)  returns 0x00 (0000ms, 0869ms total)
T10C0 001:348 JLINK_WriteReg(R15 (PC), 0x200000F4)  returns 0x00 (0000ms, 0869ms total)
T10C0 001:348 JLINK_WriteReg(XPSR, 0x01000000)  returns 0x00 (0000ms, 0869ms total)
T10C0 001:348 JLINK_WriteReg(MSP, 0x20001000)  returns 0x00 (0000ms, 0869ms total)
T10C0 001:348 JLINK_WriteReg(PSP, 0x20001000)  returns 0x00 (0000ms, 0869ms total)
T10C0 001:348 JLINK_WriteReg(CFBP, 0x00000000)  returns 0x00 (0000ms, 0869ms total)
T10C0 001:348 JLINK_SetBPEx(Addr = 0x20000000, Type = 0xFFFFFFF2)  returns 0x0000000B (0000ms, 0869ms total)
T10C0 001:348 JLINK_Go() -- CPU_ReadMem(4 bytes @ 0xE0001000) (0003ms, 0872ms total)
T10C0 001:351 JLINK_IsHalted()  returns FALSE (0000ms, 0872ms total)
T10C0 001:354 JLINK_IsHalted()  returns FALSE (0000ms, 0872ms total)
T10C0 001:356 JLINK_IsHalted()  returns FALSE (0000ms, 0872ms total)
T10C0 001:358 JLINK_IsHalted()  returns FALSE (0000ms, 0872ms total)
T10C0 001:360 JLINK_IsHalted()  returns FALSE (0001ms, 0873ms total)
T10C0 001:362 JLINK_IsHalted()  returns FALSE (0000ms, 0872ms total)
T10C0 001:364 JLINK_IsHalted()  returns FALSE (0000ms, 0872ms total)
T10C0 001:366 JLINK_IsHalted()  returns FALSE (0000ms, 0872ms total)
T10C0 001:368 JLINK_IsHalted()  returns FALSE (0000ms, 0872ms total)
T10C0 001:370 JLINK_IsHalted()  returns FALSE (0000ms, 0872ms total)
T10C0 001:374 JLINK_IsHalted()  returns FALSE (0000ms, 0872ms total)
T10C0 001:376 JLINK_IsHalted()  returns FALSE (0000ms, 0872ms total)
T10C0 001:378 JLINK_IsHalted()  returns FALSE (0000ms, 0872ms total)
T10C0 001:380 JLINK_IsHalted()  returns FALSE (0000ms, 0872ms total)
T10C0 001:382 JLINK_IsHalted() -- CPU_ReadMem(2 bytes @ 0x20000000)  returns TRUE (0002ms, 0874ms total)
T10C0 001:384 JLINK_ReadReg(R15 (PC))  returns 0x20000000 (0000ms, 0872ms total)
T10C0 001:384 JLINK_ClrBPEx(BPHandle = 0x0000000B)  returns 0x00 (0000ms, 0872ms total)
T10C0 001:384 JLINK_ReadReg(R0)  returns 0x00000000 (0000ms, 0872ms total)
T10C0 001:384 JLINK_WriteMem(0x20000164, 0x029C Bytes, ...) - Data: D6 29 D6 29 D6 29 D6 29 D6 29 D6 29 D6 29 D6 29 ... -- CPU_WriteMem(668 bytes @ 0x20000164)  returns 0x29C (0004ms, 0876ms total)
T10C0 001:388 JLINK_WriteMem(0x20000400, 0x0164 Bytes, ...) - Data: 65 6D 65 6D 65 6D 65 6D 65 6D 65 8D 65 8D 6D 8D ... -- CPU_WriteMem(356 bytes @ 0x20000400)  returns 0x164 (0002ms, 0878ms total)
T10C0 001:390 JLINK_WriteReg(R0, 0x08001C00)  returns 0x00 (0000ms, 0878ms total)
T10C0 001:390 JLINK_WriteReg(R1, 0x00000400)  returns 0x00 (0000ms, 0878ms total)
T10C0 001:390 JLINK_WriteReg(R2, 0x20000164)  returns 0x00 (0000ms, 0878ms total)
T10C0 001:390 JLINK_WriteReg(R3, 0x00000000)  returns 0x00 (0000ms, 0878ms total)
T10C0 001:390 JLINK_WriteReg(R4, 0x00000000)  returns 0x00 (0000ms, 0878ms total)
T10C0 001:390 JLINK_WriteReg(R5, 0x00000000)  returns 0x00 (0000ms, 0878ms total)
T10C0 001:390 JLINK_WriteReg(R6, 0x00000000)  returns 0x00 (0000ms, 0878ms total)
T10C0 001:390 JLINK_WriteReg(R7, 0x00000000)  returns 0x00 (0000ms, 0878ms total)
T10C0 001:390 JLINK_WriteReg(R8, 0x00000000)  returns 0x00 (0000ms, 0878ms total)
T10C0 001:390 JLINK_WriteReg(R9, 0x20000160)  returns 0x00 (0000ms, 0878ms total)
T10C0 001:390 JLINK_WriteReg(R10, 0x00000000)  returns 0x00 (0000ms, 0878ms total)
T10C0 001:390 JLINK_WriteReg(R11, 0x00000000)  returns 0x00 (0000ms, 0878ms total)
T10C0 001:390 JLINK_WriteReg(R12, 0x00000000)  returns 0x00 (0000ms, 0878ms total)
T10C0 001:390 JLINK_WriteReg(R13 (SP), 0x20001000)  returns 0x00 (0000ms, 0878ms total)
T10C0 001:390 JLINK_WriteReg(R14, 0x20000001)  returns 0x00 (0000ms, 0878ms total)
T10C0 001:390 JLINK_WriteReg(R15 (PC), 0x200000F4)  returns 0x00 (0000ms, 0878ms total)
T10C0 001:390 JLINK_WriteReg(XPSR, 0x01000000)  returns 0x00 (0000ms, 0878ms total)
T10C0 001:390 JLINK_WriteReg(MSP, 0x20001000)  returns 0x00 (0000ms, 0878ms total)
T10C0 001:390 JLINK_WriteReg(PSP, 0x20001000)  returns 0x00 (0000ms, 0878ms total)
T10C0 001:390 JLINK_WriteReg(CFBP, 0x00000000)  returns 0x00 (0000ms, 0878ms total)
T10C0 001:390 JLINK_SetBPEx(Addr = 0x20000000, Type = 0xFFFFFFF2)  returns 0x0000000C (0000ms, 0878ms total)
T10C0 001:390 JLINK_Go() -- CPU_ReadMem(4 bytes @ 0xE0001000) (0003ms, 0881ms total)
T10C0 001:393 JLINK_IsHalted()  returns FALSE (0000ms, 0881ms total)
T10C0 001:396 JLINK_IsHalted()  returns FALSE (0000ms, 0881ms total)
T10C0 001:398 JLINK_IsHalted()  returns FALSE (0000ms, 0881ms total)
T10C0 001:400 JLINK_IsHalted()  returns FALSE (0000ms, 0881ms total)
T10C0 001:402 JLINK_IsHalted()  returns FALSE (0000ms, 0881ms total)
T10C0 001:407 JLINK_IsHalted()  returns FALSE (0000ms, 0881ms total)
T10C0 001:409 JLINK_IsHalted()  returns FALSE (0000ms, 0881ms total)
T10C0 001:411 JLINK_IsHalted()  returns FALSE (0000ms, 0881ms total)
T10C0 001:413 JLINK_IsHalted()  returns FALSE (0000ms, 0881ms total)
T10C0 001:415 JLINK_IsHalted()  returns FALSE (0000ms, 0881ms total)
T10C0 001:417 JLINK_IsHalted()  returns FALSE (0000ms, 0881ms total)
T10C0 001:419 JLINK_IsHalted()  returns FALSE (0000ms, 0881ms total)
T10C0 001:421 JLINK_IsHalted()  returns FALSE (0000ms, 0881ms total)
T10C0 001:423 JLINK_IsHalted()  returns FALSE (0001ms, 0882ms total)
T10C0 001:425 JLINK_IsHalted() -- CPU_ReadMem(2 bytes @ 0x20000000)  returns TRUE (0002ms, 0883ms total)
T10C0 001:427 JLINK_ReadReg(R15 (PC))  returns 0x20000000 (0001ms, 0882ms total)
T10C0 001:428 JLINK_ClrBPEx(BPHandle = 0x0000000C)  returns 0x00 (0000ms, 0882ms total)
T10C0 001:428 JLINK_ReadReg(R0)  returns 0x00000000 (0000ms, 0882ms total)
T10C0 001:428 JLINK_WriteMem(0x20000164, 0x029C Bytes, ...) - Data: 75 AD 75 AC 75 AD 75 AD 75 AD 75 8D 75 AD 75 AD ... -- CPU_WriteMem(668 bytes @ 0x20000164)  returns 0x29C (0003ms, 0885ms total)
T10C0 001:431 JLINK_WriteMem(0x20000400, 0x0164 Bytes, ...) - Data: 75 8C 75 8D 7D 8D 7D 8D 7D 8C 7D 8C 7D 8C 7D 8C ... -- CPU_WriteMem(356 bytes @ 0x20000400)  returns 0x164 (0002ms, 0887ms total)
T10C0 001:433 JLINK_WriteReg(R0, 0x08002000)  returns 0x00 (0000ms, 0887ms total)
T10C0 001:433 JLINK_WriteReg(R1, 0x00000400)  returns 0x00 (0000ms, 0887ms total)
T10C0 001:433 JLINK_WriteReg(R2, 0x20000164)  returns 0x00 (0000ms, 0887ms total)
T10C0 001:433 JLINK_WriteReg(R3, 0x00000000)  returns 0x00 (0000ms, 0887ms total)
T10C0 001:433 JLINK_WriteReg(R4, 0x00000000)  returns 0x00 (0000ms, 0887ms total)
T10C0 001:433 JLINK_WriteReg(R5, 0x00000000)  returns 0x00 (0000ms, 0887ms total)
T10C0 001:433 JLINK_WriteReg(R6, 0x00000000)  returns 0x00 (0000ms, 0887ms total)
T10C0 001:433 JLINK_WriteReg(R7, 0x00000000)  returns 0x00 (0000ms, 0887ms total)
T10C0 001:433 JLINK_WriteReg(R8, 0x00000000)  returns 0x00 (0000ms, 0887ms total)
T10C0 001:433 JLINK_WriteReg(R9, 0x20000160)  returns 0x00 (0000ms, 0887ms total)
T10C0 001:433 JLINK_WriteReg(R10, 0x00000000)  returns 0x00 (0000ms, 0887ms total)
T10C0 001:433 JLINK_WriteReg(R11, 0x00000000)  returns 0x00 (0000ms, 0887ms total)
T10C0 001:433 JLINK_WriteReg(R12, 0x00000000)  returns 0x00 (0000ms, 0887ms total)
T10C0 001:433 JLINK_WriteReg(R13 (SP), 0x20001000)  returns 0x00 (0000ms, 0887ms total)
T10C0 001:433 JLINK_WriteReg(R14, 0x20000001)  returns 0x00 (0000ms, 0887ms total)
T10C0 001:433 JLINK_WriteReg(R15 (PC), 0x200000F4)  returns 0x00 (0000ms, 0887ms total)
